"Freq [kHz]","ACR(SignalNet1:Source1,SignalNet1:Source1) [uOhm]","ACL(SignalNet1:Source1,SignalNet1:Source1) [pH]","C(SignalNet1,SignalNet1) [pF]"
10,12.6587795797603,473.398895334891,
11,13.2766400302883,464.02296901485,
12,13.866998252641,455.844937451472,
13,14.4332293885895,448.629684200641,
14,14.9780699901069,442.202009322066,
15,15.5037753683881,436.428326736286,
16,16.0122303480287,431.204761585358,
17,16.5050292566608,426.44916050569,
18,16.9835349915182,422.095580142725,
19,17.4489234869381,418.090393844482,
20,17.9022177647887,414.389483450614,
21,18.3443144037277,410.956175971222,
22,18.7760043935792,407.759702369807,
23,19.1979897654052,404.774029171577,
24,19.6108969982889,401.976960794585,
25,20.0152879350359,399.349441462672,
26,20.4116687501853,396.875006292944,
27,20.8004973789615,394.539345291625,
28,21.1821897181826,392.329953799041,
29,21.5571248384838,390.235849830337,
30,21.9256493939603,388.247343690218,
31,22.2880813752949,386.355848807821,
32,22.6447133220243,384.553725350026,
33,22.9958150862621,382.83415010544,
34,23.3416362221344,381.191007577975,
35,23.6824080610767,379.618798321637,
36,24.0183455220431,378.112561380882,
37,24.3496486968733,376.66780834108,
38,24.6765042440383,375.280466989479,
39,24.9990866183334,373.946832974244,
40,25.3175591595207,372.663528153411,
41,25.6320750592051,371.427464566443,
42,25.9427782221878,370.235813152835,
43,26.2498040360403,369.08597649587,
44,26.5532800605766,367.97556499339,
45,26.853326647183,366.902375957719,
46,27.1500574965359,365.864375228515,
47,27.4435801620361,364.859680949095,
48,27.733996505282,363.886549211701,
49,28.0214031090503,362.94336132246,
50,28.3058916525303,362.028612474407,
51,28.5875492529472,361.140901648197,
52,28.8664587771791,360.278922586286,
53,29.1426991265304,359.441455708292,
54,29.4163454974334,358.6273608537,
55,29.6874696205195,357.835570753679,
56,29.9561399802138,357.065085146998,
57,30.2224220167586,356.314965466255,
58,30.4863783123538,355.584330030218,
59,30.7480687629134,354.87234968629,
60,31.0075507367761,354.178243854108,
61,31.2648792215585,353.501276927376,
62,31.5201069602173,352.840754996186,
63,31.7732845772739,352.196022856671,
64,32.0244606960574,351.566461278644,
65,32.2736820477339,350.951484505362,
66,32.5209935728157,350.350537962436,
67,32.7664385157743,349.763096155545,
68,33.0100585133215,349.188660738811,
69,33.2518936768691,348.626758737726,
70,33.4919826696286,348.076940912209,
71,33.7303627787724,347.538780246924,
72,33.9670699830364,347.011870557328,
73,34.2021390161111,346.495825201112,
74,34.4356034261385,345.990275885744,
75,34.6674956316025,345.494871563747,
76,34.8978469738761,345.009277408206,
77,35.1266877666679,344.533173861681,
78,35.3540473425868,344.066255752412,
79,35.57995409703,343.608231472248,
80,35.8044355295773,343.158822211272,
81,36.0275182830646,342.717761244565,
82,36.249228180493,342.284793266949,
83,36.4695902599186,341.859673771956,
84,36.6886288074554,341.442168471576,
85,36.9063673885163,341.032052753671,
86,37.1228288774042,340.62911117418,
87,37.338035485359,340.233136981534,
88,37.5520087871584,339.843931670869,
89,37.7647697463618,339.461304565872,
90,37.976338739281,339.085072426251,
91,38.1867355777567,338.715059078998,
92,38.3959795308104,338.351095071754,
93,38.6040893452404,337.993017346728,
94,38.8110832652246,337.640668933757,
95,39.0169790509862,337.293898661166,
96,39.2217939965779,336.952560883258,
97,39.4255449468348,336.616515223276,
98,39.6282483135425,336.285626330843,
99,39.8299200908648,335.959763652904,
100,40.0305758700718,335.638801217302,
101,40.2302308536065,335.322617428164,
102,40.4288998685268,335.011094872356,
103,40.6265973793556,334.704120136287,
104,40.8233375003705,334.401583632438,
105,41.0191340073636,334.103379434986,
106,41.2140003488978,333.809405123989,
107,41.4079496570869,333.519561637592,
108,41.6009947579231,333.233753131778,
109,41.7931481811748,332.951886847215,
110,41.9844221698779,332.673872982776,
111,42.1748286894378,332.399624575335,
112,42.3643794363652,332.129057385486,
113,42.55308584666,331.862089788831,
114,42.7409591038633,331.598642672531,
115,42.9280101467912,331.338639336808,
116,43.1142496769677,331.082005401134,
117,43.2996881657686,330.828668714834,
118,43.4843358612926,330.578559271871,
119,43.6682027949696,330.331609129567,
120,43.8512987879206,330.087752331074,
121,44.033633457079,329.846924831359,
122,44.2152162210848,329.609064426542,
123,44.3960563059623,329.374110686402,
124,44.5761627505898,329.142004889876,
125,44.7555444119717,328.912689963404,
126,44.9342099703207,328.686110421976,
127,45.1121679339594,328.462212312729,
128,45.2894266440486,328.240943160979,
129,45.4659942791484,328.022251918553,
130,45.6418788596224,327.806088914318,
131,45.8170882518885,327.592405806783,
132,45.9916301725242,327.381155538685,
133,46.1655121922321,327.172292293456,
134,46.3387417396721,326.96577145348,
135,46.5113261051642,326.761549560049,
136,46.6832724442687,326.559584274953,
137,46.8545877812485,326.359834343601,
138,47.0252790124164,326.162259559624,
139,47.1953529093756,325.966820730878,
140,47.3648161221534,325.773479646784,
141,47.5336751822358,325.582199046948,
142,47.7019365055046,325.392942590993,
143,47.8696063950822,325.205674829558,
144,48.0366910440862,325.020361176406,
145,48.203196538299,324.836967881589,
146,48.3691288587543,324.655462005627,
147,48.5344938842436,324.475811394657,
148,48.6992973937466,324.297984656505,
149,48.8635450687879,324.121951137644,
150,49.0272424957223,323.947680900992,
151,49.1903951679518,323.775144704535,
152,49.3530084880765,323.604313980705,
153,49.5150877699823,323.435160816517,
154,49.6766382408668,323.26765793441,
155,49.8376650432064,323.101778673766,
156,49.9981732366667,322.937496973087,
157,50.1581677999569,322.774787352796,
158,50.317653632632,322.613624898635,
159,50.4766355568438,322.45398524564,
160,50.6351183190414,322.295844562671,
161,50.7931065916254,322.139179537463,
162,50.9506049745546,321.983967362195,
163,51.1076179969093,321.830185719541,
164,51.2641501184103,321.677812769187,
165,51.4202057308972,321.526827134807,
166,51.5757891597666,321.377207891462,
167,51.7309046653699,321.228934553423,
168,51.8855564443756,321.081987062383,
169,52.0397486310933,320.936345776062,
170,52.1934852987638,320.79199145718,
171,52.3467704608142,320.648905262781,
172,52.4996080720806,320.507068733901,
173,52.6520020299985,320.366463785565,
174,52.8039561757626,320.227072697106,
175,52.9554742954565,320.088878102775,
176,53.1065601211531,319.951862982661,
177,53.2572173319875,319.816010653881,
178,53.407449555202,319.681304762051,
179,53.5572603671653,319.547729273015,
180,53.706653294366,319.415268464825,
181,53.8556318143807,319.283906919974,
182,54.0041993568188,319.153629517853,
183,54.1523593042438,319.024421427443,
184,54.3001149930718,318.896268100223,
185,54.4474697144478,318.769155263286,
186,54.5944267151017,318.643068912666,
187,54.7409891981822,318.517995306855,
188,54.8871603240722,318.393920960513,
189,55.032943211183,318.270832638361,
190,55.1783409367316,318.14871734925,
191,55.3233565374977,318.027562340402,
192,55.4679930105641,317.907355091816,
193,55.6122533140393,317.788083310832,
194,55.7561403677637,317.669734926854,
195,55.8996570539987,317.552298086216,
196,56.0428062181005,317.435761147196,
197,56.1855906691784,317.320112675167,
198,56.3280131807377,317.20534143789,
199,56.4700764913087,317.091436400922,
200,56.6117833050607,316.978386723169,
201,56.7531362924028,316.866181752547,
202,56.8941380905708,316.754811021769,
203,57.0347913042016,316.644264244238,
204,57.1750985058944,316.534531310064,
205,57.3150622367596,316.425602282174,
206,57.4546850069559,316.317467392537,
207,57.5939692962155,316.210117038479,
208,57.7329175543582,316.103541779108,
209,57.8715322017934,315.997732331822,
210,58.0098156300131,315.892679568912,
211,58.1477702020723,315.78837451426,
212,58.2853982530608,315.684808340112,
213,58.422702090564,315.581972363942,
214,58.5596839951147,315.479858045397,
215,58.6963462206344,315.378456983313,
216,58.8326909948668,315.277760912815,
217,58.9687205198008,315.177761702487,
218,59.1044369720859,315.078451351614,
219,59.2398425034382,314.97982198749,
220,59.3749392410389,314.881865862805,
221,59.5097292879237,314.784575353078,
222,59.6442147233649,314.687942954174,
223,59.7783976032459,314.591961279865,
224,59.9122799604275,314.496623059464,
225,60.0458638051077,314.401921135511,
226,60.1791511251732,314.307848461513,
227,60.3121438865452,314.214398099743,
228,60.4448440335173,314.121563219093,
229,60.5772534890872,314.029337092974,
230,60.709374155282,313.937713097272,
231,60.8412079134768,313.846684708345,
232,60.9727566247075,313.756245501074,
233,61.1040221299769,313.666389146963,
234,61.2350062505558,313.577109412269,
235,61.3657107882774,313.488400156195,
236,61.4961375258267,313.40025532911,
237,61.6262882270245,313.31266897082,
238,61.7561646371047,313.225635208872,
239,61.8857684829888,313.139148256903,
240,62.0151014735522,313.05320241302,
241,62.1441652998886,312.967792058226,
242,62.2729616355668,312.882911654875,
243,62.4014921368846,312.798555745162,
244,62.529758443117,312.714718949653,
245,62.6577621767603,312.63139596584,
246,62.7855049437715,312.548581566735,
247,62.9129883338031,312.466270599492,
248,63.0402139204345,312.384457984058,
249,63.167183261398,312.303138711863,
250,63.2938978988017,312.222307844523,
251,63.4203593593479,312.141960512586,
252,63.5465691545478,312.062091914301,
253,63.6725287809321,311.982697314406,
254,63.7982397202581,311.903772042957,
255,63.9237034397133,311.825311494169,
256,64.0489213921149,311.747311125288,
257,64.1738950161061,311.669766455486,
258,64.2986257363492,311.592673064782,
259,64.4231149637147,311.516026592983,
260,64.5473640954679,311.439822738646,
261,64.6713745154515,311.364057258066,
262,64.7951475942658,311.288725964283,
263,64.918684689445,311.213824726111,
264,65.0419871456314,311.139349467184,
265,65.1650562947457,311.065296165027,
266,65.2878934561552,310.991660850142,
267,65.4104999368386,310.918439605114,
268,65.5328770315485,310.845628563738,
269,65.6550260229707,310.773223910157,
270,65.776948181881,310.701221878026,
271,65.8986447672996,310.629618749689,
272,66.020117026643,310.558410855371,
273,66.1413661958727,310.487594572386,
274,66.2623934996423,310.41716632437,
275,66.3832001514414,310.347122580515,
276,66.5037873537382,310.277459854828,
277,66.6241562981185,310.208174705406,
278,66.7443081654235,310.139263733715,
279,66.8642441258847,310.070723583894,
280,66.9839653392572,310.00255094207,
281,67.10347295495,309.93474253568,
282,67.2227681121553,309.867295132816,
283,67.3418519399749,309.800205541576,
284,67.4607255575449,309.733470609427,
285,67.5793900741586,309.667087222589,
286,67.697846589387,309.601052305419,
287,67.816096193198,309.535362819816,
288,67.9341399660728,309.470015764629,
289,68.0519789791221,309.40500817509,
290,68.1696142941983,309.34033712224,
291,68.2870469640082,309.275999712379,
292,68.4042780322222,309.211993086522,
293,68.5213085335828,309.148314419865,
294,68.6381394940113,309.084960921261,
295,68.7547719307122,309.021929832706,
296,68.8712068522771,308.959218428837,
297,68.9874452587863,308.896824016434,
298,69.1034881419088,308.834743933934,
299,69.2193364850013,308.772975550958,
300,69.3349912632051,308.711516267839,
301,69.4504534435422,308.650363515164,
302,69.5657239850094,308.589514753324,
303,69.6808038386715,308.528967472067,
304,69.7956939477523,308.468719190069,
305,69.9103952477255,308.4087674545,
306,70.0249086664031,308.349109840612,
307,70.1392351240231,308.289743951322,
308,70.2533755333357,308.230667416806,
309,70.3673307996885,308.171877894109,
310,70.48110182111,308.113373066746,
311,70.5946894883927,308.055150644327,
312,70.7080946851736,307.997208362172,
313,70.8213182880153,307.939543980947,
314,70.9343611664845,307.8821552863,
315,71.0472241832301,307.825040088499,
316,71.1599081940601,307.768196222089,
317,71.2724140480169,307.71162154554,
318,71.3847425874525,307.655313940911,
319,71.4968946481016,307.599271313517,
320,71.6088710591547,307.543491591602,
321,71.7206726433288,307.487972726016,
322,71.8323002169388,307.432712689902,
323,71.9437545899665,307.377709478381,
324,72.0550365661292,307.322961108248,
325,72.1661469429477,307.268465617673,
326,72.2770865118124,307.214221065905,
327,72.3878560580496,307.16022553298,
328,72.4984563609861,307.10647711944,
329,72.6088881940131,307.052973946046,
330,72.7191523246496,306.999714153508,
331,72.8292495146043,306.94669590221,
332,72.9391805198371,306.893917371943,
333,73.0489460906198,306.841376761647,
334,73.1585469715957,306.789072289147,
335,73.2679839018386,306.737002190901,
336,73.3772576149107,306.685164721754,
337,73.4863688389205,306.633558154686,
338,73.5953182965789,306.582180780576,
339,73.7041067052553,306.53103090796,
340,73.8127347770326,306.480106862801,
341,73.9212032187616,306.429406988255,
342,74.0295127321148,306.378929644447,
343,74.1376640136391,306.328673208248,
344,74.2456577548084,306.278636073055,
345,74.3534946420747,306.228816648577,
346,74.4611753569196,306.179213360619,
347,74.568700575904,306.129824650878,
348,74.676070970718,306.080648976732,
349,74.78328720823,306.031684811045,
350,74.8903499505344,305.982930641958,
351,74.9972598550001,305.934384972702,
352,75.1040175743169,305.8860463214,
353,75.2106237565425,305.837913220878,
354,75.3170790451481,305.78998421848,
355,75.4233840790639,305.742257875879,
356,75.5295394927235,305.694732768901,
357,75.6355459161087,305.647407487345,
358,75.7414039747923,305.600280634803,
359,75.8471142899819,305.553350828495,
360,75.9526774785621,305.506616699091,
361,76.0580941531364,305.460076890547,
362,76.1633649220691,305.41373005994,
363,76.2684903895256,305.367574877302,
364,76.3734711555135,305.321610025464,
365,76.4783078159222,305.275834199897,
366,76.5830009625625,305.230246108552,
367,76.6875511832053,305.184844471712,
368,76.7919590616207,305.139628021842,
369,76.8962251776154,305.094595503435,
370,77.0003501070705,305.049745672868,
371,77.1043344219786,305.005077298261,
372,77.2081786904808,304.96058915933,
373,77.3118834769023,304.916280047249,
374,77.4154493417884,304.872148764513,
375,77.5188768419403,304.828194124802,
376,77.6221665304493,304.784414952844,
377,77.7253189567318,304.740810084286,
378,77.8283346665634,304.697378365565,
379,77.9312142021122,304.654118653776,
380,78.0339581019724,304.611029816549,
381,78.1365669011973,304.568110731921,
382,78.2390411313314,304.525360288217,
383,78.3413813204431,304.48277738393,
384,78.4435879931557,304.440360927594,
385,78.5456616706796,304.398109837677,
386,78.6476028708425,304.356023042457,
387,78.7494121081209,304.314099479911,
388,78.8510898936695,304.272338097603,
389,78.9526367353519,304.230737852574,
390,79.0540531377699,304.189297711227,
391,79.1553396022924,304.148016649226,
392,79.256496627085,304.106893651387,
393,79.3575247071381,304.06592771157,
394,79.4584243342953,304.025117832582,
395,79.5591959972813,303.984463026068,
396,79.6598401817297,303.943962312417,
397,79.76035737021,303.903614720659,
398,79.8607480422548,303.863419288366,
399,79.9610126743865,303.823375061561,
400,80.0611517401436,303.783481094616,
401,80.1611657101068,303.743736450165,
402,80.2610550519247,303.704140199007,
403,80.3608202303398,303.664691420015,
404,80.4604617072129,303.625389200047,
405,80.559979941549,303.58623263386,
406,80.659375389521,303.547220824017,
407,80.758648504495,303.508352880804,
408,80.8577997370536,303.469627922143,
409,80.9568295350204,303.431045073511,
410,81.0557383434835,303.392603467854,
411,81.1545266048182,303.354302245506,
412,81.2531947587112,303.316140554109,
413,81.3517432421822,303.278117548531,
414,81.4501724896076,303.240232390792,
415,81.5484829327421,303.202484249981,
416,81.646675000741,303.164872302184,
417,81.7447491201822,303.127395730405,
418,81.8427057150875,303.090053724494,
419,81.9405452069445,303.052845481072,
420,82.0382680147272,303.015770203458,
421,82.1358745549173,302.9788271016,
422,82.2333652415247,302.942015392002,
423,82.3307404861082,302.905334297652,
424,82.4280006977956,302.86878304796,
425,82.5251462833038,302.832360878683,
426,82.6221776469586,302.796067031861,
427,82.7190951907145,302.759900755751,
428,82.8158993141738,302.723861304761,
429,82.9125904146064,302.687947939386,
430,83.009168886968,302.652159926142,
431,83.1056351239196,302.616496537507,
432,83.2019895158461,302.580957051854,
433,83.2982324508741,302.545540753396,
434,83.3943643148909,302.510246932118,
435,83.4903854915621,302.475074883724,
436,83.5862963623496,302.440023909573,
437,83.6820973065293,302.405093316624,
438,83.7777887012085,302.370282417378,
439,83.8733709213433,302.335590529817,
440,83.9688443397557,302.301016977354,
441,84.0642093271508,302.266561088774,
442,84.159466252133,302.232222198181,
443,84.2546154812234,302.197999644941,
444,84.3496573788756,302.163892773633,
445,84.4445923074924,302.129900933992,
446,84.5394206274416,302.09602348086,
447,84.6341426970723,302.062259774132,
448,84.7287588727304,302.028609178708,
449,84.8232695087745,301.995071064442,
450,84.917674957591,301.96164480609,
451,85.0119755696101,301.928329783263,
452,85.1061716933201,301.895125380381,
453,85.2002636752832,301.86203098662,
454,85.2942518601498,301.829045995869,
455,85.3881365906738,301.796169806682,
456,85.4819182077266,301.763401822231,
457,85.5755970503119,301.730741450262,
458,85.66917345558,301.69818810305,
459,85.7626477588417,301.665741197353,
460,85.8560202935825,301.633400154369,
461,85.9492913914765,301.601164399695,
462,86.0424613824002,301.569033363278,
463,86.1355305944459,301.537006479381,
464,86.2284993539353,301.505083186532,
465,86.3213679854329,301.473262927492,
466,86.4141368117591,301.441545149207,
467,86.5068061540034,301.40992930277,
468,86.5993763315372,301.378414843383,
469,86.6918476620271,301.347001230313,
470,86.7842204614468,301.315687926859,
471,86.8764950440906,301.284474400308,
472,86.9686717225852,301.253360121901,
473,87.0607508079025,301.222344566792,
474,87.1527326093714,301.191427214014,
475,87.2446174346904,301.160607546441,
476,87.3364055899393,301.129885050749,
477,87.4280973795912,301.099259217385,
478,87.5196931065241,301.068729540527,
479,87.6111930720331,301.038295518053,
480,87.7025975758413,301.007956651502,
481,87.7939069161115,300.977712446045,
482,87.8851213894579,300.947562410444,
483,87.9762412909568,300.917506057026,
484,88.067266914158,300.887542901645,
485,88.1581985510959,300.85767246365,
486,88.2490364923002,300.827894265854,
487,88.3397810268071,300.798207834502,
488,88.4304324421696,300.768612699237,
489,88.5209910244684,300.739108393071,
490,88.6114570583224,300.709694452354,
491,88.701830826899,300.680370416741,
492,88.7921126119246,300.651135829167,
493,88.8823026936949,300.621990235808,
494,88.9724013510847,300.592933186063,
495,89.0624088615584,300.563964232514,
496,89.1523255011797,300.535082930903,
497,89.2421515446215,300.506288840105,
498,89.3318872651758,300.477581522093,
499,89.4215329347634,300.448960541915,
500,89.5110888239433,300.420425467667,
