"Freq [kHz]","ACR(SignalNet1:Source1,SignalNet1:Source1) [uOhm]","ACL(SignalNet1:Source1,SignalNet1:Source1) [pH]","C(SignalNet1,SignalNet1) [pF]"
10,0.578530328844019,42.9936695678734,
11,0.606767727826395,42.5651718834818,
12,0.633748222617502,42.1914202702361,
13,0.659626063622474,41.8616694589833,
14,0.684526316476815,41.5679124788752,
15,0.708552053196202,41.3040441917353,
16,0.731789413853324,41.0653173187802,
17,0.754311262256522,40.8479772948754,
18,0.776179885404321,40.6490103831628,
19,0.797449025734875,40.4659657435429,
20,0.818165437295379,40.2968270920879,
21,0.838370095437555,40.1399184033348,
22,0.858099149902395,39.9938334737319,
23,0.877384684846077,39.8573825239141,
24,0.896255331555515,39.7295511735264,
25,0.914736767316655,39.6094685373167,
26,0.932852125269681,39.4963821387878,
27,0.950622333926254,39.3896379839783,
28,0.96806640056281,39.2886645861325,
29,0.985201649429126,39.192960047633,
30,1.00204392327737,39.1020815309558,
31,1.0186077548872,39.015636613464,
32,1.03490651387243,38.9332761402378,
33,1.05095253298844,38.8546882775252,
34,1.06675721733394,38.7795935355114,
35,1.08233113919599,38.7077405790435,
36,1.09768412077999,38.6389026830077,
37,1.11282530666397,38.5728747183095,
38,1.12776322749547,38.5094705770727,
39,1.14250585619079,38.4485209633655,
40,1.15706065768804,38.3898714896681,
41,1.17143463313525,38.3333810303047,
42,1.18563435925582,38.2789202918237,
43,1.19966602351954,38.2263705673357,
44,1.21353545565279,38.1756226474723,
45,1.22724815594307,38.1265758652129,
46,1.24080932072777,38.0791372555568,
47,1.25422386540208,38.0332208140706,
48,1.267496445235,37.9887468408495,
49,1.28063147424332,37.9456413585013,
50,1.29363314234053,37.9038355944828,
51,1.30650543094971,37.8632655195423,
52,1.31925212724495,37.8238714352231,
53,1.33187683716609,37.7855976043795,
54,1.34438299733327,37.7483919195052,
55,1.35677388597291,37.7122056043826,
56,1.36905263295363,37.676992945169,
57,1.38122222901911,37.642711047547,
58,1.39328553429501,37.6093196170057,
59,1.40524528613868,37.5767807596926,
60,1.4171041063924,37.5450588015991,
61,1.42886450809496,37.5141201241167,
62,1.44052890169989,37.4839330142415,
63,1.45209960084421,37.4544675279093,
64,1.46357882770665,37.4256953651215,
65,1.47496871799045,37.3975897556797,
66,1.48627132556261,37.3701253544785,
67,1.4974886267778,37.3432781454268,
68,1.50862252451304,37.3170253531691,
69,1.51967485193621,37.29134536187,
70,1.53064737602969,37.2662176404023,
71,1.54154180088826,37.2416226733523,
72,1.55235977080864,37.2175418973128,
73,1.56310287318663,37.1939576419943,
74,1.57377264123619,37.1708530757267,
75,1.58437055654376,37.1482121549721,
76,1.59489805146975,37.1260195775029,
77,1.60535651140837,37.1042607389356,
78,1.61574727691569,37.0829216923398,
79,1.62607164571544,37.0619891106677,
80,1.63633087459076,37.0414502517754,
81,1.64652618116998,37.0212929258261,
82,1.65665874561342,37.0015054648872,
83,1.66672971220791,36.9820766945474,
84,1.67674019087511,36.9629959073988,
85,1.68669125859926,36.9442528382389,
86,1.69658396077954,36.9258376408639,
87,1.70641931251191,36.9077408663335,
88,1.71619829980479,36.8899534425974,
89,1.72592188073275,36.8724666553851,
90,1.73559098653206,36.8552721302664,
91,1.74520652264154,36.8383618157993,
92,1.75476936969215,36.8217279676885,
93,1.7642803844483,36.8053631338824,
94,1.77374040070363,36.7892601405456,
95,1.78315023013416,36.773412078845,
96,1.79251066311103,36.7578122924946,
97,1.80182246947528,36.7424543660096,
98,1.81108639927675,36.72733211362,
99,1.82030318347919,36.7124395688025,
100,1.82947353463331,36.6977709743898,
101,1.83859814751972,36.6833207732189,
102,1.84767769976318,36.6690835992861,
103,1.85671285241994,36.6550542693744,
104,1.86570425053936,36.6412277751254,
105,1.87465252370136,36.6275992755273,
106,1.88355828653087,36.6141640897939,
107,1.8924221391905,36.6009176906096,
108,1.90124466785251,36.5878556977206,
109,1.91002644515117,36.5749738718486,
110,1.91876803061654,36.5622681089112,
111,1.92746997109042,36.549734434528,
112,1.93613280112562,36.5373689987977,
113,1.94475704336911,36.5251680713299,
114,1.95334320893002,36.5131280365172,
115,1.96189179773306,36.5012453890338,
116,1.97040329885825,36.4895167295479,
117,1.97887819086742,36.4779387606363,
118,1.98731694211818,36.4665082828898,
119,1.99572001106598,36.4552221911987,
120,2.00408784655474,36.4440774712093,
121,2.01242088809664,36.4330711959419,
122,2.02071956614145,36.4222005225606,
123,2.02898430233606,36.4114626892892,
124,2.0372155097744,36.4008550124634,
125,2.04541359323845,36.3903748837129,
126,2.05357894943045,36.380019767267,
127,2.06171196719694,36.3697871973771,
128,2.06981302774486,36.3596747758503,
129,2.07788250484996,36.349680169688,
130,2.08592076505816,36.3398011088246,
131,2.0939281678797,36.3300353839622,
132,2.10190506597688,36.320380844494,
133,2.10985180534523,36.3108353965159,
134,2.11776872548863,36.3013970009176,
135,2.12565615958861,36.2920636715537,
136,2.13351443466788,36.2828334734872,
137,2.14134387174864,36.2737045213047,
138,2.14914478600552,36.2646749774987,
139,2.15691748691366,36.2557430509136,
140,2.16466227839198,36.2469069952532,
141,2.17237945894183,36.2381651076465,
142,2.18006932178122,36.229515727269,
143,2.18773215497485,36.2209572340176,
144,2.19536824155997,36.2124880472353,
145,2.20297785966844,36.2041066244852,
146,2.21056128264488,36.1958114603703,
147,2.21811877916126,36.1876010853981,
148,2.22565061332795,36.1794740648862,
149,2.23315704480144,36.1714289979101,
150,2.24063832888879,36.1634645162883,
151,2.24809471664892,36.1555792836049,
152,2.25552645499094,36.1477719942678,
153,2.26293378676957,36.1400413726004,
154,2.27031695087767,36.1323861719661,
155,2.27767618233623,36.1248051739241,
156,2.28501171238157,36.1172971874141,
157,2.2923237685502,36.1098610479712,
158,2.29961257476111,36.1024956169661,
159,2.30687835139581,36.0951997808737,
160,2.31412131537608,36.0879724505655,
161,2.3213416802395,36.0808125606266,
162,2.32853965621296,36.0737190686962,
163,2.33571545028405,36.0666909548298,
164,2.3428692662705,36.0597272208838,
165,2.35000130488774,36.0528268899191,
166,2.35711176381463,36.0459890056264,
167,2.36420083775735,36.0392126317687,
168,2.37126871851163,36.0324968516433,
169,2.3783155950233,36.0258407675605,
170,2.38534165344721,36.01924350034,
171,2.39234707720463,36.0127041888229,
172,2.39933204703908,36.0062219893993,
173,2.40629674107081,35.9997960755515,
174,2.41324133484971,35.9934256374112,
175,2.42016600140702,35.9871098813307,
176,2.42707091130558,35.9808480294676,
177,2.43395623268886,35.9746393193824,
178,2.44082213132874,35.9684830036486,
179,2.44766877067209,35.9623783494747,
180,2.45449631188614,35.9563246383379,
181,2.46130491390276,35.9503211656286,
182,2.46809473346165,35.9443672403062,
183,2.47486592515238,35.938462184565,
184,2.48161864145553,35.9326053335098,
185,2.48835303278269,35.9267960348416,
186,2.4950692475156,35.9210336485526,
187,2.50176743204426,35.9153175466295,
188,2.50844773080416,35.9096471127667,
189,2.51511028631267,35.9040217420868,
190,2.52175523920444,35.8984408408695,
191,2.52838272826609,35.8929038262886,
192,2.53499289047001,35.8874101261561,
193,2.5415858610074,35.8819591786742,
194,2.54816177332052,35.8765504321936,
195,2.5547207591342,35.8711833449792,
196,2.56126294848663,35.8658573849821,
197,2.56778846975947,35.8605720296181,
198,2.57429744970718,35.8553267655525,
199,2.58079001348582,35.8501210884903,
200,2.58726628468107,35.8449545029728,
201,2.59372638533571,35.8398265221795,
202,2.60017043597643,35.8347366677354,
203,2.60659855564011,35.8296844695235,
204,2.61301086189942,35.8246694655026,
205,2.61940747088794,35.8196912015295,
206,2.62578849732472,35.8147492311865,
207,2.63215405453823,35.8098431156133,
208,2.6385042544899,35.804972423343,
209,2.64483920779705,35.800136730143,
210,2.65115902375541,35.7953356188598,
211,2.65746381036111,35.7905686792676,
212,2.66375367433219,35.7858355079212,
213,2.67002872112969,35.7811357080127,
214,2.67628905497831,35.7764688892317,
215,2.68253477888656,35.771834667629,
216,2.68876599466655,35.767232665484,
217,2.69498280295337,35.7626625111757,
218,2.70118530322406,35.7581238390559,
219,2.70737359381613,35.7536162893273,
220,2.71354777194582,35.7491395079227,
221,2.71970793372586,35.7446931463892,
222,2.72585417418295,35.7402768617732,
223,2.73198658727488,35.7358903165102,
224,2.73810526590726,35.7315331783159,
225,2.74421030194996,35.7272051200808,
226,2.7503017862532,35.7229058197667,
227,2.75637980866331,35.7186349603063,
228,2.76244445803821,35.7143922295049,
229,2.76849582226256,35.7101773199447,
230,2.77453398826262,35.705989928891,
231,2.78055904202082,35.7018297582009,
232,2.78657106859003,35.6976965142343,
233,2.79257015210759,35.6935899077668,
234,2.79855637580904,35.6895096539045,
235,2.8045298220416,35.6854554720014,
236,2.81049057227736,35.6814270855777,
237,2.81643870712628,35.6774242222413,
238,2.82237430634889,35.6734466136098,
239,2.82829744886878,35.6694939952355,
240,2.83420821278481,35.665566106531,
241,2.84010667538318,35.6616626906974,
242,2.84599291314918,35.6577834946537,
243,2.85186700177876,35.653928268968,
244,2.85772901618992,35.6500967677898,
245,2.86357903053383,35.6462887487843,
246,2.86941711820577,35.6425039730683,
247,2.87524335185589,35.638742205147,
248,2.88105780339978,35.6350032128522,
249,2.88686054402875,35.6312867672827,
250,2.8926516442201,35.627592642745,
251,2.89843117374701,35.6239206166958,
252,2.90419920168843,35.6202704696861,
253,2.90995579643866,35.6166419853052,
254,2.91570102571683,35.613034950128,
255,2.92143495657621,35.6094491536611,
256,2.92715765541329,35.6058843882922,
257,2.93286918797683,35.6023404492388,
258,2.9385696193766,35.5988171344995,
259,2.94425901409206,35.595314244805,
260,2.94993743598091,35.5918315835713,
261,2.95560494828738,35.5883689568529,
262,2.96126161365052,35.5849261732978,
263,2.96690749411223,35.581503044103,
264,2.97254265112522,35.5780993829707,
265,2.9781671455608,35.5747150060662,
266,2.98378103771658,35.5713497319759,
267,2.98938438732396,35.5680033816664,
268,2.99497725355561,35.5646757784448,
269,3.0005596950327,35.5613667479192,
270,3.00613176983212,35.5580761179605,
271,3.01169353549348,35.5548037186647,
272,3.01724504902609,35.551549382316,
273,3.02278636691574,35.5483129433509,
274,3.02831754513144,35.5450942383226,
275,3.03383863913198,35.5418931058666,
276,3.03934970387242,35.5387093866664,
277,3.04485079381053,35.5355429234204,
278,3.05034196291299,35.532393560809,
279,3.0558232646616,35.5292611454632,
280,3.06129475205939,35.5261455259326,
281,3.06675647763652,35.5230465526548,
282,3.07220849345627,35.5199640779255,
283,3.07765085112071,35.5168979558687,
284,3.08308360177652,35.5138480424076,
285,3.0885067961205,35.5108141952365,
286,3.09392048440514,35.5077962737927,
287,3.09932471644405,35.5047941392293,
288,3.10471954161728,35.5018076543878,
289,3.11010500887663,35.4988366837728,
290,3.11548116675077,35.4958810935252,
291,3.1208480633504,35.4929407513975,
292,3.12620574637326,35.4900155267286,
293,3.13155426310904,35.4871052904195,
294,3.1368936604443,35.4842099149096,
295,3.14222398486723,35.4813292741528,
296,3.14754528247238,35.4784632435948,
297,3.15285759896532,35.4756117001503,
298,3.15816097966722,35.4727745221809,
299,3.16345546951934,35.4699515894732,
300,3.16874111308751,35.4671427832175,
301,3.17401795456647,35.4643479859867,
302,3.1792860377842,35.4615670817158,
303,3.18454540620617,35.4587999556817,
304,3.1897961029395,35.4560464944829,
305,3.19503817073713,35.4533065860206,
306,3.20027165200183,35.450580119479,
307,3.20549658879022,35.4478669853071,
308,3.21071302281674,35.4451670751992,
309,3.21592099545748,35.442480282078,
310,3.22112054775407,35.4398065000755,
311,3.2263117204174,35.4371456245167,
312,3.23149455383139,35.4344975519013,
313,3.2366690880566,35.4318621798876,
314,3.2418353628339,35.4292394072753,
315,3.24699341758797,35.4266291339897,
316,3.25214329143088,35.4240312610653,
317,3.25728502316547,35.42144569063,
318,3.26241865128885,35.4188723258899,
319,3.26754421399567,35.4163110711141,
320,3.27266174918152,35.4137618316191,
321,3.27777129444613,35.4112245137551,
322,3.28287288709665,35.4086990248908,
323,3.28796656415079,35.4061852733993,
324,3.29305236233996,35.4036831686445,
325,3.29813031811237,35.4011926209669,
326,3.30320046763608,35.3987135416707,
327,3.308262846802,35.3962458430097,
328,3.31331749122684,35.393789438175,
329,3.31836443625605,35.391344241282,
330,3.32340371696672,35.3889101673575,
331,3.32843536817037,35.3864871323275,
332,3.33345942441582,35.3840750530051,
333,3.33847591999192,35.3816738470784,
334,3.34348488893028,35.3792834330985,
335,3.34848636500798,35.3769037304683,
336,3.35348038175022,35.3745346594308,
337,3.35846697243294,35.372176141058,
338,3.36344617008539,35.3698280972398,
339,3.36841800749273,35.3674904506729,
340,3.37338251719851,35.3651631248509,
341,3.37833973150715,35.3628460440526,
342,3.38328968248642,35.3605391333328,
343,3.38823240196983,35.3582423185113,
344,3.39316792155907,35.3559555261634,
345,3.3980962726263,35.3536786836096,
346,3.40301748631652,35.3514117189063,
347,3.40793159354985,35.349154560836,
348,3.41283862502382,35.3469071388982,
349,3.41773861121556,35.3446693832995,
350,3.42263158238408,35.3424412249453,
351,3.42751756857236,35.3402225954304,
352,3.43239659960958,35.3380134270301,
353,3.43726870511321,35.3358136526919,
354,3.44213391449111,35.3336232060265,
355,3.4469922569436,35.3314420212996,
356,3.45184376146551,35.329270033424,
357,3.4566884568482,35.3271071779505,
358,3.46152637168155,35.3249533910608,
359,3.46635753435592,35.3228086095592,
360,3.47118197306412,35.3206727708646,
361,3.47599971580329,35.3185458130033,
362,3.48081079037683,35.3164276746012,
363,3.48561522439626,35.3143182948762,
364,3.49041304528307,35.3122176136311,
365,3.49520428027054,35.3101255712464,
366,3.49998895640554,35.3080421086732,
367,3.50476710055033,35.3059671674259,
368,3.50953873938431,35.3039006895757,
369,3.51430389940575,35.3018426177435,
370,3.51906260693351,35.2997928950934,
371,3.52381488810875,35.2977514653263,
372,3.5285607688966,35.2957182726726,
373,3.53330027508778,35.2936932618869,
374,3.5380334323003,35.2916763782409,
375,3.54276026598101,35.2896675675173,
376,3.54748080140726,35.2876667760042,
377,3.55219506368841,35.2856739504884,
378,3.55690307776745,35.2836890382498,
379,3.56160486842249,35.2817119870555,
380,3.56630046026832,35.2797427451539,
381,3.57098987775788,35.2777812612694,
382,3.57567314518379,35.2758274845962,
383,3.58035028667975,35.2738813647933,
384,3.58502132622206,35.2719428519787,
385,3.58968628763103,35.2700118967243,
386,3.59434519457237,35.2680884500504,
387,3.59899807055862,35.2661724634205,
388,3.60364493895055,35.2642638887362,
389,3.60828582295848,35.2623626783324,
390,3.61292074564367,35.2604687849717,
391,3.61754972991964,35.25858216184,
392,3.6221727985535,35.2567027625414,
393,3.62678997416725,35.2548305410935,
394,3.6314012792391,35.2529654519226,
395,3.63600673610468,35.251107449859,
396,3.64060636695837,35.2492564901327,
397,3.64520019385452,35.2474125283684,
398,3.64978823870869,35.2455755205813,
399,3.65437052329885,35.243745423173,
400,3.65894706926662,35.2419221929263,
401,3.66351789811842,35.2401057870019,
402,3.6680830312267,35.2382961629336,
403,3.67264248983106,35.236493278624,
404,3.67719629503943,35.2346970923409,
405,3.68174446782921,35.2329075627129,
406,3.68628702904836,35.2311246487254,
407,3.69082399941658,35.2293483097168,
408,3.69535539952637,35.2275785053745,
409,3.6998812498441,35.2258151957311,
410,3.70440157071114,35.2240583411606,
411,3.7089163823449,35.2223079023745,
412,3.71342570483989,35.2205638404186,
413,3.71792955816875,35.2188261166687,
414,3.7224279621833,35.2170946928275,
415,3.72692093661555,35.2153695309208,
416,3.73140850107872,35.2136505932941,
417,3.73589067506824,35.2119378426092,
418,3.7403674779627,35.2102312418407,
419,3.74483892902489,35.2085307542726,
420,3.74930504740272,35.2068363434951,
421,3.7537658521302,35.2051479734013,
422,3.75822136212837,35.2034656081839,
423,3.76267159620624,35.2017892123321,
424,3.76711657306174,35.2001187506284,
425,3.77155631128261,35.1984541881453,
426,3.7759908293473,35.1967954902429,
427,3.7804201456259,35.1951426225648,
428,3.784844278381,35.1934955510363,
429,3.78926324576858,35.1918542418603,
430,3.79367706583888,35.1902186615154,
431,3.79808575653725,35.1885887767525,
432,3.80248933570501,35.1869645545917,
433,3.80688782108031,35.1853459623203,
434,3.81128123029892,35.1837329674892,
435,3.81566958089508,35.1821255379107,
436,3.82005289030235,35.1805236416557,
437,3.82443117585433,35.1789272470509,
438,3.82880445478556,35.1773363226761,
439,3.83317274423225,35.1757508373619,
440,3.83753606123307,35.174170760187,
441,3.84189442272995,35.1725960604757,
442,3.84624784556881,35.171026707795,
443,3.85059634650036,35.169462671953,
444,3.85493994218084,35.1679039229954,
445,3.85927864917272,35.1663504312041,
446,3.86361248394552,35.164802167094,
447,3.86794146287646,35.1632591014111,
448,3.87226560225124,35.1617212051303,
449,3.87658491826471,35.1601884494524,
450,3.8808994270216,35.1586608058028,
451,3.88520914453725,35.1571382458286,
452,3.88951408673823,35.1556207413964,
453,3.89381426946308,35.1541082645905,
454,3.89810970846301,35.1526007877104,
455,3.9024004194025,35.151098283269,
456,3.90668641786003,35.14960072399,
457,3.91096771932872,35.1481080828064,
458,3.91524433921697,35.1466203328579,
459,3.91951629284913,35.1451374474893,
460,3.92378359546611,35.1436594002483,
461,3.92804626222607,35.1421861648835,
462,3.93230430820498,35.1407177153425,
463,3.93655774839728,35.1392540257698,
464,3.94080659771651,35.1377950705054,
465,3.94505087099586,35.1363408240822,
466,3.94929058298885,35.1348912612245,
467,3.95352574836988,35.1334463568465,
468,3.95775638173484,35.1320060860496,
469,3.96198249760169,35.1305704241215,
470,3.96620411041103,35.1291393465337,
471,3.97042123452671,35.1277128289405,
472,3.97463388423636,35.1262908471763,
473,3.97884207375199,35.1248733772549,
474,3.98304581721053,35.123460395367,
475,3.98724512867438,35.1220518778789,
476,3.99144002213196,35.1206478013308,
477,3.99563051149828,35.1192481424351,
478,3.99981661061545,35.1178528780748,
479,4.00399833325321,35.116461985302,
480,4.00817569310949,35.1150754413361,
481,4.01234870381089,35.1136932235624,
482,4.01651737891325,35.1123153095304,
483,4.02068173190212,35.1109416769525,
484,4.02484177619328,35.1095723037024,
485,4.02899752513326,35.1082071678133,
486,4.03314899199982,35.106846247477,
487,4.03729619000246,35.1054895210418,
488,4.04143913228291,35.1041369670117,
489,4.04557783191559,35.1027885640444,
490,4.04971230190814,35.1014442909501,
491,4.05384255520183,35.1001041266902,
492,4.05796860467212,35.098768050376,
493,4.06209046312903,35.097436041267,
494,4.06620814331768,35.0961080787696,
495,4.07032165791873,35.0947841424361,
496,4.07443101954881,35.0934642119631,
497,4.07853624076099,35.0921482671903,
498,4.08263733404524,35.090836288099,
499,4.08673431182885,35.0895282548112,
500,4.0908271864769,35.0882241475879,
