"Freq [kHz]","ACR(SignalNet1:Source1,SignalNet1:Source1) [uOhm]","ACL(SignalNet1:Source1,SignalNet1:Source1) [nH]","C(SignalNet1,SignalNet1) [pF]"
10,141.045672702539,14.8776486058329,
11,147.929949526535,14.7731808862801,
12,154.507793155343,14.6820602568409,
13,160.816809832012,14.6016670212948,
14,166.887490553836,14.5300490804459,
15,172.744964274412,14.4657180018335,
16,178.410231940265,14.4075163990664,
17,183.901057745164,14.354528909304,
18,189.232627257039,14.3060207836123,
19,194.418042880316,14.2613945072659,
20,199.468703249968,14.220158510318,
21,204.394598155223,14.181904177823,
22,209.204540901593,14.1462886774071,
23,213.906353605164,14.1130219409053,
24,218.507016572623,14.0818566624247,
25,223.012789925331,14.0525805201731,
26,227.429313522006,14.0250100604085,
27,231.761689733014,13.9989858394272,
28,236.014552531646,13.9743685287796,
29,240.192125569354,13.9510357658451,
30,244.298271308529,13.9288795868518,
31,248.336532840311,13.9078043191753,
32,252.310169676052,13.8877248388592,
33,256.222188541057,13.8685651208463,
34,260.075369997969,13.8502570255302,
35,263.872291569978,13.8327392774098,
36,267.615347910397,13.8159566009109,
37,271.306768467014,13.7998589855678,
38,274.948633011377,13.7844010582872,
39,278.542885340187,13.7695415447273,
40,282.091345405079,13.7552428052164,
41,285.595720085681,13.74147043332,
42,289.057612786915,13.7281929072994,
43,292.478532013686,13.7153812864194,
44,295.859899053069,13.70300894544,
45,299.203054874952,13.6910513417453,
46,302.509266346197,13.6794858104716,
47,305.779731839973,13.6682913837413,
48,309.015586310686,13.6574486307204,
49,312.217905895463,13.6469395157236,
50,315.387712095065,13.6367472720073,
51,318.525975580282,13.6268562892424,
52,321.633619664024,13.6172520129473,
53,324.711523474288,13.607920854408,
54,327.760524858934,13.5988501098164,
55,330.781423049444,13.5900278875324,
56,333.774981107672,13.5814430425229,
57,336.741928176813,13.5730851171549,
58,339.682961555402,13.5649442876281,
59,342.598748611054,13.5570113154227,
60,345.489928548824,13.5492775032167,
61,348.357114047471,13.5417346547946,
62,351.200892775479,13.5343750385273,
63,354.021828797469,13.527191354053,
64,356.820463880529,13.5201767018331,
65,359.597318709035,13.5133245552942,
66,362.35289401568,13.5066287353006,
67,365.087671635663,13.5000833867301,
68,367.802115490328,13.4936829569519,
69,370.496672505937,13.4874221760262,
70,373.171773472731,13.4812960384649,
71,375.82783384895,13.4752997864108,
72,378.465254514077,13.4694288941061,
73,381.084422475147,13.4636790535346,
74,383.685711529668,13.458046161136,
75,386.269482888357,13.4525263054963,
76,388.836085760633,13.4471157559329,
77,391.385857905547,13.4418109518976,
78,393.919126150626,13.4366084931295,
79,396.43620688086,13.4315051304947,
80,398.937406499936,13.4264977574589,
81,401.423021865595,13.4215834021405,
82,403.89334070088,13.4167592198979,
83,406.348641982877,13.4120224864101,
84,408.789196310445,13.4073705912114,
85,411.215266252301,13.4028010316458,
86,413.627106676729,13.3983114072092,
87,416.024965064085,13.3938994142502,
88,418.409081803185,13.3895628410035,
89,420.779690472574,13.3852995629301,
90,423.137018107618,13.3811075383442,
91,425.48128545427,13.3769848043047,
92,427.812707210327,13.3729294727526,
93,430.131492254915,13.3689397268779,
94,432.437843866898,13.3650138177,
95,434.731959932856,13.3611500608456,
96,437.014033145246,13.3573468335123,
97,439.284251191282,13.3536025716051,
98,441.54279693309,13.3499157670338,
99,443.789848579604,13.3462849651599,
100,446.025579850661,13.3427087623865,
101,448.250160133747,13.3391858038773,
102,450.463754633756,13.3357147814008,
103,452.666524516174,13.332294431289,
104,454.858627044012,13.3289235325042,
105,457.040215708831,13.3256009048079,
106,459.211440356167,13.3223254070247,
107,461.372447305642,13.3190959353952,
108,463.523379466029,13.3159114220135,
109,465.664376445546,13.312770833344,
110,467.795574657596,13.3096731688114,
111,469.917107422194,13.3066174594619,
112,472.029105063293,13.3036027666897,
113,474.131695002205,13.3006281810259,
114,476.225001847315,13.2976928209853,
115,478.309147480253,13.2947958319699,
116,480.384251138708,13.2919363852225,
117,482.450429496035,13.2891136768315,
118,484.507796737803,13.2863269267811,
119,486.556464635433,13.2835753780456,
120,488.596542617058,13.2808582957258,
121,490.628137835728,13.278174966224,
122,492.651355235084,13.2755246964571,
123,494.666297612619,13.272906813104,
124,496.673065680622,13.2703206618876,
125,498.67175812492,13.2677656068871,
126,500.662471661507,13.2652410298819,
127,502.645301091158,13.2627463297225,
128,504.620339352103,13.2602809217295,
129,506.587677570865,13.257844237118,
130,508.547405111317,13.2554357224462,
131,510.49960962205,13.2530548390871,
132,512.444377082115,13.2507010627231,
133,514.381791845209,13.2483738828602,
134,516.311936682369,13.2460728023636,
135,518.234892823235,13.2437973370111,
136,520.150739995938,13.241547015065,
137,522.059556465671,13.2393213768617,
138,523.961419072,13.2371199744169,
139,525.856403264955,13.2349423710469,
140,527.744583139956,13.2327881410048,
141,529.62603147162,13.2306568691307,
142,531.500819746488,13.2285481505157,
143,533.36901819472,13.2264615901786,
144,535.230695820794,13.2243968027554,
145,537.085920433241,13.2223534121999,
146,538.934758673472,13.2203310514966,
147,540.7772760437,13.218329362383,
148,542.613536934028,13.2163479950838,
149,544.443604648697,13.2143866080536,
150,546.267541431557,13.2124448677298,
151,548.085408490765,13.2105224482942,
152,549.897266022755,13.2086190314435,
153,551.703173235492,13.2067343061679,
154,553.503188371054,13.2048679685374,
155,555.297368727544,13.2030197214961,
156,557.085770680373,13.2011892746636,
157,558.86844970293,13.1993763441433,
158,560.645460386658,13.1975806523376,
159,562.416856460561,13.1958019277691,
160,564.182690810158,13.1940399049081,
161,565.943015495908,13.1922943240067,
162,567.697881771116,13.1905649309373,
163,569.447340099349,13.1888514770375,
164,571.191440171362,13.1871537189599,
165,572.930230921572,13.1854714185268,
166,574.663760544074,13.18380434259,
167,576.392076508229,13.182152262895,
168,578.115225573829,13.1805149559496,
169,579.83325380586,13.1788922028972,
170,581.546206588868,13.1772837893937,
171,583.254128640949,13.1756895054885,
172,584.957064027373,13.1741091455096,
173,586.655056173843,13.172542507952,
174,588.348147879422,13.1709893953698,
175,590.036381329116,13.1694496142718,
176,591.719798106138,13.1679229750199,
177,593.398439203862,13.1664092917315,
178,595.072345037468,13.1649083821841,
179,596.741555455293,13.1634200677231,
180,598.406109749904,13.1619441731726,
181,600.066046668885,13.1604805267488,
182,601.721404425367,13.1590289599762,
183,603.372220708285,13.1575893076056,
184,605.018532692395,13.1561614075357,
185,606.660377048039,13.154745100736,
186,608.297789950679,13.1533402311726,
187,609.930807090191,13.1519466457359,
188,611.559463679946,13.1505641941705,
189,613.183794465668,13.1491927290076,
190,614.803833734083,13.1478321054979,
191,616.419615321363,13.1464821815485,
192,618.031172621372,13.1451428176601,
193,619.638538593718,13.1438138768663,
194,621.24174577162,13.1424952246751,
195,622.840826269587,13.1411867290114,
196,624.435811790926,13.1398882601617,
197,626.026733635077,13.1385996907201,
198,627.613622704778,13.1373208955356,
199,629.196509513066,13.136051751661,
200,630.775424190129,13.1347921383036,
201,632.350396489991,13.1335419367765,
202,633.921455797057,13.1323010304519,
203,635.48863113251,13.1310693047153,
204,637.051951160564,13.1298466469211,
205,638.611444194585,13.1286329463492,
206,640.167138203067,13.127428094163,
207,641.719060815491,13.1262319833683,
208,643.267239328047,13.1250445087736,
209,644.811700709237,13.1238655669509,
210,646.352471605353,13.1226950561982,
211,647.889578345848,13.1215328765025,
212,649.423046948575,13.1203789295039,
213,650.952903124936,13.1192331184607,
214,652.479172284904,13.118095348215,
215,654.001879541951,13.1169655251603,
216,655.521049717869,13.1158435572081,
217,657.036707347487,13.1147293537573,
218,658.548876683302,13.113622825663,
219,660.057581699998,13.1125238852064,
220,661.562846098888,13.1114324460661,
221,663.064693312253,13.1103484232892,
222,664.563146507601,13.1092717332638,
223,666.058228591836,13.1082022936914,
224,667.549962215343,13.1071400235614,
225,669.038369775992,13.1060848431243,
226,670.523473423062,13.1050366738672,
227,672.005295061088,13.1039954384893,
228,673.483856353625,13.1029610608774,
229,674.959178726952,13.101933466083,
230,676.431283373687,13.1009125802995,
231,677.900191256341,13.0998983308396,
232,679.365923110804,13.098890646114,
233,680.828499449756,13.0978894556096,
234,682.287940566018,13.0968946898694,
235,683.744266535836,13.0959062804719,
236,685.197497222108,13.0949241600113,
237,686.647652277535,13.0939482620784,
238,688.094751147734,13.0929785212417,
239,689.53881307427,13.0920148730287,
240,690.979857097647,13.0910572539083,
241,692.417902060234,13.0901056012729,
242,693.852966609142,13.0891598534214,
243,695.285069199043,13.0882199495423,
244,696.714228094941,13.0872858296972,
245,698.140461374887,13.086357434805,
246,699.563786932651,13.0854347066259,
247,700.984222480337,13.0845175877463,
248,702.401785550958,13.0836060215636,
249,703.816493500959,13.0826999522717,
250,705.228363512697,13.0817993248465,
251,706.637412596876,13.080904085032,
252,708.043657594939,13.0800141793264,
253,709.447115181414,13.079129554969,
254,710.847801866223,13.0782501599267,
255,712.245733996949,13.0773759428811,
256,713.640927761058,13.0765068532165,
257,715.03339918809,13.0756428410068,
258,716.423164151806,13.0747838570041,
259,717.8102383723,13.0739298526266,
260,719.19463741807,13.073080779947,
261,720.576376708063,13.0722365916816,
262,721.955471513674,13.0713972411786,
263,723.331936960717,13.070562682408,
264,724.705788031359,13.0697328699502,
265,726.077039566026,13.0689077589865,
266,727.445706265269,13.0680873052882,
267,728.811802691605,13.0672714652069,
268,730.175343271326,13.066460195665,
269,731.536342296272,13.0656534541456,
270,732.894813925587,13.0648511986838,
271,734.250772187426,13.0640533878569,
272,735.604230980656,13.0632599807759,
273,736.955204076512,13.0624709370763,
274,738.303705120234,13.0616862169099,
275,739.649747632673,13.0609057809359,
276,740.993345011875,13.060129590313,
277,742.334510534637,13.0593576066911,
278,743.673257358035,13.0585897922034,
279,745.009598520933,13.0578261094583,
280,746.343546945462,13.0570665215324,
281,747.675115438479,13.0563109919623,
282,749.004316693005,13.0555594847376,
283,750.331163289628,13.054811964294,
284,751.655667697901,13.0540683955053,
285,752.977842277705,13.0533287436776,
286,754.297699280595,13.0525929745416,
287,755.615250851126,13.0518610542465,
288,756.930509028155,13.051132949353,
289,758.243485746124,13.0504086268273,
290,759.554192836327,13.0496880540346,
291,760.862642028149,13.048971198733,
292,762.168844950295,13.0482580290672,
293,763.472813131992,13.0475485135631,
294,764.77455800418,13.0468426211212,
295,766.074090900678,13.0461403210116,
296,767.371423059337,13.0454415828679,
297,768.666565623172,13.044746376682,
298,769.959529641483,13.0440546727983,
299,771.250326070949,13.043366441909,
300,772.538965776715,13.0426816550481,
301,773.825459533458,13.0420002835869,
302,775.109818026438,13.0413222992289,
303,776.392051852535,13.0406476740044,
304,777.672171521266,13.0399763802664,
305,778.950187455791,13.0393083906849,
306,780.226109993906,13.0386436782433,
307,781.499949389016,13.0379822162328,
308,782.771715811095,13.0373239782487,
309,784.041419347637,13.0366689381855,
310,785.309070004586,13.0360170702325,
311,786.574677707259,13.03536834887,
312,787.838252301251,13.0347227488647,
313,789.099803553328,13.0340802452655,
314,790.359341152309,13.0334408134,
315,791.616874709934,13.0328044288698,
316,792.872413761719,13.0321710675473,
317,794.125967767801,13.0315407055711,
318,795.377546113767,13.030913319343,
319,796.627158111477,13.0302888855236,
320,797.874812999871,13.0296673810294,
321,799.120519945766,13.0290487830283,
322,800.364288044639,13.0284330689369,
323,801.606126321408,13.0278202164166,
324,802.84604373119,13.0272102033702,
325,804.084049160059,13.0266030079388,
326,805.320151425783,13.0259986084984,
327,806.554359278566,13.0253969836564,
328,807.78668140176,13.0247981122489,
329,809.017126412587,13.0242019733371,
330,810.245702862836,13.0236085462047,
331,811.472419239559,13.0230178103543,
332,812.697283965754,13.022429745505,
333,813.920305401042,13.0218443315892,
334,815.141491842328,13.0212615487496,
335,816.360851524464,13.0206813773366,
336,817.57839262089,13.0201037979056,
337,818.79412324428,13.0195287912139,
338,820.008051447168,13.0189563382181,
339,821.22018522257,13.0183864200719,
340,822.430532504602,13.0178190181228,
341,823.639101169083,13.0172541139102,
342,824.845899034132,13.0166916891623,
343,826.050933860762,13.0161317257941,
344,827.254213353458,13.0155742059045,
345,828.455745160754,13.0150191117744,
346,829.655536875799,13.0144664258638,
347,830.85359603692,13.0139161308101,
348,832.04993012817,13.013368209425,
349,833.244546579877,13.0128226446931,
350,834.437452769179,13.0122794197691,
351,835.628656020559,13.0117385179757,
352,836.81816360637,13.0111999228017,
353,838.005982747348,13.0106636178996,
354,839.192120613129,13.0101295870839,
355,840.37658432275,13.0095978143284,
356,841.559380945149,13.009068283765,
357,842.740517499659,13.0085409796808,
358,843.920000956492,13.008015886517,
359,845.097838237216,13.0074929888665,
360,846.274036215236,13.006972271472,
361,847.448601716256,13.0064537192244,
362,848.621541518744,13.0059373171605,
363,849.792862354386,13.0054230504619,
364,850.96257090854,13.0049109044523,
365,852.130673820678,13.0044008645965,
366,853.297177684829,13.0038929164985,
367,854.462089050009,13.0033870458994,
368,855.625414420654,13.0028832386762,
369,856.787160257043,13.0023814808399,
370,857.947332975713,13.0018817585339,
371,859.105938949877,13.0013840580324,
372,860.262984509831,13.0008883657389,
373,861.418475943355,13.0003946681845,
374,862.572419496116,12.9999029520264,
375,863.724821372059,12.9994132040466,
376,864.875687733796,12.9989254111499,
377,866.025024702992,12.9984395603631,
378,867.172838360744,12.997955638833,
379,868.319134747956,12.9974736338252,
380,869.463919865713,12.9969935327227,
381,870.607199675641,12.9965153230244,
382,871.748980100277,12.996038992344,
383,872.889267023421,12.9955645284083,
384,874.028066290491,12.9950919190561,
385,875.165383708878,12.9946211522367,
386,876.301225048281,12.994152216009,
387,877.43559604106,12.9936850985397,
388,878.568502382563,12.9932197881025,
389,879.69994973147,12.9927562730766,
390,880.829943710114,12.9922945419455,
391,881.958489904811,12.9918345832961,
392,883.085593866181,12.9913763858168,
393,884.211261109468,12.9909199382973,
394,885.335497114855,12.9904652296266,
395,886.458307327772,12.9900122487925,
396,887.579697159207,12.9895609848799,
397,888.69967198601,12.9891114270702,
398,889.81823715119,12.9886635646399,
399,890.93539796422,12.9882173869596,
400,892.051159701323,12.9877728834932,
401,893.165527605766,12.9873300437962,
402,894.278506888149,12.9868888575155,
403,895.390102726688,12.9864493143877,
404,896.500320267494,12.9860114042386,
405,897.609164624855,12.9855751169817,
406,898.716640881508,12.9851404426177,
407,899.822754088911,12.9847073712333,
408,900.927509267513,12.9842758930003,
409,902.030911407018,12.9838459981747,
410,903.132965466651,12.9834176770956,
411,904.233676375415,12.9829909201845,
412,905.333049032349,12.9825657179444,
413,906.431088306784,12.9821420609587,
414,907.527799038592,12.9817199398904,
415,908.623186038438,12.9812993454816,
416,909.717254088024,12.980880268552,
417,910.81000794033,12.9804626999986,
418,911.901452319863,12.9800466307945,
419,912.991591922887,12.9796320519885,
420,914.080431417662,12.9792189547039,
421,915.167975444678,12.9788073301377,
422,916.254228616884,12.9783971695601,
423,917.339195519919,12.9779884643136,
424,918.422880712335,12.9775812058123,
425,919.50528872582,12.9771753855407,
426,920.586424065424,12.9767709950536,
427,921.666291209772,12.976368025975,
428,922.744894611283,12.9759664699975,
429,923.822238696384,12.9755663188813,
430,924.898327865723,12.9751675644539,
431,925.973166494376,12.9747701986092,
432,927.046758932058,12.9743742133067,
433,928.119109503324,12.973979600571,
434,929.190222507779,12.973586352491,
435,930.260102220269,12.9731944612195,
436,931.328752891092,12.9728039189719,
437,932.396178746185,12.9724147180265,
438,933.462383987325,12.972026850723,
439,934.527372792317,12.9716403094622,
440,935.591149315192,12.9712550867056,
441,936.653717686389,12.9708711749744,
442,937.715082012945,12.9704885668491,
443,938.775246378682,12.9701072549689,
444,939.834214844388,12.9697272320309,
445,940.891991447997,12.9693484907898,
446,941.948580204774,12.9689710240572,
447,943.003985107487,12.968594824701,
448,944.058210126585,12.9682198856448,
449,945.111259210376,12.9678461998674,
450,946.163136285194,12.9674737604023,
451,947.213845255571,12.9671025603371,
452,948.26339000441,12.9667325928129,
453,949.311774393148,12.9663638510237,
454,950.359002261924,12.9659963282163,
455,951.40507742974,12.9656300176892,
456,952.45000369463,12.9652649127926,
457,953.493784833814,12.9649010069274,
458,954.536424603862,12.9645382935452,
459,955.577926740847,12.9641767661474,
460,956.618294960506,12.9638164182849,
461,957.657532958394,12.9634572435576,
462,958.695644410033,12.963099235614,
463,959.732632971068,12.9627423881505,
464,960.768502277417,12.9623866949112,
465,961.803255945415,12.9620321496871,
466,962.836897571968,12.9616787463163,
467,963.869430734694,12.9613264786825,
468,964.90085899207,12.9609753407157,
469,965.931185883573,12.9606253263909,
470,966.960414929824,12.9602764297281,
471,967.988549632726,12.9599286447918,
472,969.015593475605,12.9595819656905,
473,970.041549923348,12.9592363865762,
474,971.066422422536,12.9588919016444,
475,972.090214401582,12.9585485051331,
476,973.112929270866,12.9582061913227,
477,974.134570422863,12.9578649545359,
478,975.15514123228,12.9575247891367,
479,976.17464505618,12.9571856895303,
480,977.193085234116,12.9568476501628,
481,978.210465088255,12.9565106655209,
482,979.226787923508,12.956174730131,
483,980.242057027652,12.9558398385595,
484,981.256275671455,12.9555059854119,
485,982.269447108799,12.9551731653329,
486,983.281574576803,12.9548413730054,
487,984.292661295942,12.9545106031508,
488,985.302710470168,12.9541808505285,
489,986.311725287026,12.9538521099351,
490,987.319708917776,12.9535243762046,
491,988.326664517503,12.9531976442078,
492,989.332595225237,12.9528719088519,
493,990.337504164068,12.9525471650806,
494,991.341394441252,12.952223407873,
495,992.344269148332,12.951900632244,
496,993.346131361244,12.9515788332437,
497,994.346984140426,12.9512580059569,
498,995.346830530932,12.9509381455032,
499,996.345673562535,12.9506192470361,
500,997.343516249839,12.9503013057435,
